!Created with skrf (http://scikit-rf.org).
# Hz S RI R 50.0 
!freq ReS11 ImS11
900000000.0 0.24788554496369775 -0.9660658893894284
900350000.0 0.24726912902554776 -0.9666404806179634
900700000.0000001 0.246572468954741 -0.9672240985983933
901049999.9999999 0.24580099043318399 -0.9677986810509596
901400000.0 0.2449640709046252 -0.9683506956441936
901750000.0 0.24407265522629967 -0.9688713991693314
902100000.0 0.24313743106741664 -0.9693561679886575
902450000.0 0.24216772984807183 -0.9698034134302373
902800000.0 0.2411710551324931 -0.9702134644421325
903150000.0 0.24015304240387253 -0.9705876183524114
903500000.0 0.23911766468328793 -0.9709274199062525
903850000.0 0.23806755255255696 -0.971234150229163
904200000.0 0.2370041507467222 -0.9715076279445358
904550000.0 0.23592863415101 -0.9717476865270736
904900000.0 0.2348420534594573 -0.971953926635148
905250000.0 0.23374542647522312 -0.9721240749563353
905600000.0000001 0.23264043445398247 -0.9722547498245756
905950000.0 0.23152996475906062 -0.972341560371671
906300000.0 0.23041873054135842 -0.9723793888331619
906650000.0 0.22931392520197091 -0.9723629558205245
907000000.0 0.2282257918383524 -0.9722877789146805
907350000.0 0.22716787757025103 -0.9721515943024901
907700000.0 0.22615663041030065 -0.9719561751097722
908050000.0 0.22520996582425484 -0.9717092205915843
908400000.0 0.22434461226085572 -0.971425658795348
908750000.0 0.22357253281411998 -0.9711274978779394
909100000.0 0.22289739885552384 -0.9708415781376663
909450000.0 0.22231253558081843 -0.9705953711058425
909800000.0 0.2218014615717423 -0.9704120265735342
910150000.0 0.22134105157716943 -0.9703064457112043
910500000.0 0.22090612482005462 -0.9702837278438984
910850000.0 0.22047375672370856 -0.9703401691833922
911200000.0 0.2200260746939809 -0.9704659259908821
911550000.0 0.21955122466754973 -0.9706481013583788
911900000.0 0.21904292658863717 -0.9708733261161702
912249999.9999999 0.2184992939317436 -0.9711294509676109
912600000.0 0.21792148570607622 -0.9714063922971485
912950000.0 0.2173125220351818 -0.9716963689547069
913300000.0 0.21667638611928952 -0.9719937880754046
913650000.0 0.21601740855397628 -0.9722949785489876
914000000.0 0.21533987411196748 -0.9725978967387989
914350000.0 0.21464777798642293 -0.9729018693250565
914700000.0 0.2139446644590996 -0.9732073981417457
915050000.0 0.2132334920327581 -0.9735160269907843
915400000.0000001 0.21251647932579232 -0.9738302536396908
915750000.0 0.21179489495255255 -0.9741534552057289
916100000.0 0.2110687656100162 -0.9744897773778695
916450000.0 0.21033649660981263 -0.9748439160036422
916800000.0 0.20959443809060352 -0.9752206980603784
917150000.0000001 0.20883649760861878 -0.9756243634752068
917500000.0 0.20805399412018816 -0.976057490283782
917850000.0 0.20723603679846558 -0.976519632703511
918200000.0 0.20637071202738377 -0.9770059704781022
918550000.0 0.20544715995114426 -0.9775065270427483
918900000.0 0.20445817679195688 -0.9780066030429826
919250000.0 0.20340247307549908 -0.9784887547196608
919600000.0 0.20228555925782482 -0.9789359229496015
919950000.0 0.20111872230807004 -0.9793346131657557
920300000.0 0.1999164795273572 -0.9796769165147152
920650000.0 0.19869358896343708 -0.9799607844727047
921000000.0 0.19746269202381278 -0.9801888345638333
921350000.0 0.1962331117473623 -0.9803664695652193
921700000.0 0.1950107264409821 -0.980500058395815
922050000.0 0.1937985227821869 -0.980595591258558
922400000.0 0.19259741942289788 -0.9806578878835692
922750000.0000001 0.19140708903995618 -0.9806902493070246
923100000.0 0.19022665667331085 -0.9806943931477223
923450000.0 0.1890552551948395 -0.9806705377641196
923800000.0 0.18789247084832256 -0.9806175497564478
924149999.9999999 0.18673872943875003 -0.9805331159056492
924500000.0000001 0.18559567304861402 -0.9804139379450428
924850000.0000001 0.18446656721498128 -0.9802559787431762
925200000.0 0.18335676116209648 -0.9800548159297616
925550000.0 0.18227419479070006 -0.979806186272294
925900000.0 0.18122989675994167 -0.9795068284366961
926250000.0 0.18023833696409425 -0.9791557401841654
926600000.0 0.17931737787173735 -0.9787559289990916
926950000.0 0.17848742919932814 -0.9783166028879087
927300000.0 0.17776931948263114 -0.977855464162569
927650000.0 0.17718050910545896 -0.977400325383734
928000000.0 0.1767297880846052 -0.9769888137036009
928350000.0 0.17641160830644398 -0.9766648729177348
928700000.0 0.17620232393665763 -0.9764716391891521
929050000.0 0.1760609025199824 -0.976442146806435
929400000.0 0.17593521286229152 -0.9765912323397987
929750000.0 0.17577216773686272 -0.9769122428986377
930100000.0 0.17552777391677216 -0.9773799788730388
930450000.0 0.17517336272167672 -0.9779581513786091
930800000.0 0.17469665431138587 -0.9786078690363763
931149999.9999999 0.1740988320642629 -0.9792941993963288
931500000.0 0.1733898904926569 -0.9799896364915284
931850000.0 0.172584154892222 -0.9806748565858818
932200000.0 0.17169692590331814 -0.9813378011460032
932550000.0000001 0.17074240747600483 -0.9819720675029227
932900000.0 0.16973266857940117 -0.9825752428673455
933250000.0 0.16867728715927194 -0.9831474819105345
933600000.0 0.16758337616253577 -0.9836904066501256
933950000.0 0.1664557861894943 -0.9842062946882405
934300000.0000001 0.1652973660918507 -0.9846974797193817
934650000.0 0.16410922780569542 -0.9851658824186953
935000000.0 0.16289100800549722 -0.9856125996181737
935350000.0 0.1616411546251214 -0.9860374965817416
935700000.0 0.1603572975167073 -0.9864387717816938
936049999.9999999 0.15903679101402834 -0.9868125031631709
936400000.0 0.15767753346731433 -0.9871522506890233
936750000.0 0.15627914986665736 -0.9874488896796056
937100000.0 0.1548445236135132 -0.9876909689017563
937450000.0 0.1533814343626586 -0.9878659596651209
937800000.0 0.1519037113495268 -0.9879626474815779
938150000.0 0.15043101816477655 -0.9879744612945112
938500000.0 0.14898651131681373 -0.9879027720422113
938850000.0 0.14759246668511017 -0.9877585833430729
939200000.0 0.14626526972374015 -0.9875613132365972
939550000.0 0.14501191695853383 -0.9873347482448347
939900000.0 0.1438295265029637 -0.9871018429688837
940250000.0 0.14270769697496333 -0.9868805321757202
940600000.0 0.1416322298206612 -0.9866818190972653
940950000.0 0.1405885874613258 -0.9865100392789923
941300000.0 0.13956418873195636 -0.9863643873310044
941650000.0 0.1385494564114712 -0.9862407562870146
942000000.0000001 0.1375379736980029 -0.9861333084308231
942350000.0 0.1365261800437555 -0.9860355800972067
942700000.0 0.1355129283082332 -0.9859411557876918
943049999.9999999 0.1344990864098944 -0.9858440365299999
943400000.0 0.13348726261152055 -0.9857388359403464
943750000.0 0.13248167223323126 -0.9856209169826526
944100000.0 0.13148813118203406 -0.985486560961327
944450000.0 0.13051414133967854 -0.9853332479356706
944799999.9999999 0.12956901005134353 -0.9851601243757653
945150000.0 0.12866390856487003 -0.9849687325097565
945500000.0 0.12781171255853163 -0.9847640613414725
945850000.0 0.12702637903099073 -0.9845559241239414
946200000.0 0.12632151574992123 -0.9843605278219423
946550000.0 0.12570775792530187 -0.984201827782706
946900000.0 0.1251887262895109 -0.984111848422784
947250000.0 0.1247559101377545 -0.9841287423748075
947600000.0 0.12438390531929194 -0.984291380044289
947950000.0 0.12402866501891185 -0.9846303361696143
948300000.0 0.12363163657093135 -0.9851574745129006
948650000.0 0.12313055415147844 -0.9858587220725457
949000000.0 0.12247361655683797 -0.9866945833330842
949350000.0000001 0.12163084264788154 -0.9876092154122178
949700000.0 0.12059765350484802 -0.988543913937332
950050000.0 0.11939039946121355 -0.9894488701292175
950400000.0 0.11803757386070896 -0.9902893005815636
950750000.0 0.11657112866784342 -0.9910458392798526
951100000.0 0.11502044765628255 -0.9917114109616548
951450000.0 0.11340937956712138 -0.9922870105478625
951800000.0 0.11175555077050314 -0.9927779104409951
952150000.0 0.11007095265492711 -0.9931908605707609
952500000.0 0.10836304412923753 -0.993532264222408
952850000.0 0.10663593927457243 -0.9938070865023811
953200000.0 0.10489150249251017 -0.9940182301750637
953550000.0 0.10313032632043534 -0.9941661727025428
953900000.0 0.10135264805985389 -0.9942487355948031
954250000.0 0.09955930136090413 -0.9942609327097779
954600000.0 0.09775281624023191 -0.9941949207615435
954950000.0 0.09593877730392653 -0.9940401651957924
955300000.0 0.09412750694974048 -0.9937840494140228
955650000.0 0.09233601556771959 -0.9934132914088852
955999999.9999999 0.09058989031857806 -0.992916641147583
956350000.0 0.08892432762753039 -0.9922892766126892
956700000.0 0.08738292503088474 -0.9915388408448189
957050000.0 0.08601252564209827 -0.9906919000177681
957400000.0 0.08485316145491995 -0.989797887941873
957750000.0 0.08392470706082567 -0.9889264878984297
958100000.0 0.08321551178824305 -0.9881559356987084
958450000.0 0.0826799049244566 -0.9875547352847371
958800000.0 0.08224787596390926 -0.987164665691469
959150000.0000001 0.08184292908737562 -0.9869933327419822
959500000.0 0.08139938741971076 -0.9870186402627219
959850000.0 0.08087228414294728 -0.9872007107441665
960200000.0 0.08023864027311112 -0.9874945117258205
960550000.0 0.07949315154182951 -0.9878587936414513
960900000.0000001 0.07864208290646418 -0.9882604162319937
961250000.0 0.07769784547826214 -0.9886752180560539
961600000.0 0.07667516711232492 -0.98908702970606
961950000.0 0.07558880702343584 -0.9894860437789337
962300000.0 0.07445240601026143 -0.9898672190583192
962650000.0 0.07327804202804389 -0.9902290019619102
963000000.0 0.07207615824938174 -0.9905724297460821
963350000.0 0.07085563619522517 -0.9909005840193466
963700000.0 0.06962386145628396 -0.9912183314718259
964050000.0 0.06838666939699029 -0.9915322799946706
964400000.0 0.06714807109099719 -0.9918508655795744
964750000.0 0.06590966013817606 -0.9921844487206706
965100000.0 0.06466961420797562 -0.9925452223520688
965450000.0 0.06342127732814773 -0.9929466114770018
965800000.0 0.062151513625196886 -0.9934017113088172
966150000.0 0.06083943428862809 -0.9939202929178941
966500000.0000001 0.05945667465390703 -0.9945042680838319
966850000.0 0.057970753552914756 -0.9951425414806023
967200000.0 0.056352354799874216 -0.9958077328535004
967550000.0 0.05458499793521415 -0.9964580767793492
967899999.9999999 0.052672593411143054 -0.9970460103529812
968250000.0000001 0.05063994405161465 -0.9975305434634871
968600000.0000001 0.048525206411951294 -0.9978871564173666
968950000.0 0.04636859822680789 -0.9981104968700408
969300000.0 0.04420320533789379 -0.9982101731007823
969650000.0 0.04205090852373122 -0.9982035352672086
970000000.0 0.03992282101544625 -0.998109217561137
970350000.0 0.037822018772974586 -0.9979430991487889
970700000.0 0.035746668092415446 -0.9977165530265738
971050000.0 0.033692608661471835 -0.9974361562709692
971400000.0 0.031655188519088995 -0.9971040804018481
971750000.0 0.02963050133369932 -0.996718666072883
972100000.0 0.02761627340200995 -0.9962749475364383
972450000.0 0.025612633896802517 -0.9957650650845276
972800000.0 0.023622961165565948 -0.9951786094050113
973150000.0 0.02165496026855046 -0.9945030200691545
973500000.0 0.0197220891141775 -0.9937242458718012
973850000.0 0.017845385116348533 -0.9928279922403185
974200000.0 0.01605559662057876 -0.991802037933895
974550000.0 0.014395204281064666 -0.9906402646176268
974899999.9999999 0.012919315905122297 -0.9893490719311602
975250000.0 0.01169349146264681 -0.9879564189231814
975600000.0 0.01078559587496597 -0.9865222868235703
975950000.0 0.010248871158891504 -0.9851464443933375
976300000.0000001 0.010096587583289351 -0.9839658028156257
976650000.0 0.01027619871221841 -0.9831330071889927
977000000.0 0.010659269708165053 -0.9827757038082838
977350000.0 0.011062150758901101 -0.9829519028098359
977700000.0 0.011294544490861314 -0.9836274230964419
978050000.0000001 0.011211273101880248 -0.9846906315472568
978400000.0 0.010740015815211335 -0.985993969727772
978750000.0 0.009877384261105182 -0.9873967548705929
979100000.0 0.008665726181388111 -0.9887909067797758
979450000.0 0.007167434773322212 -0.9901073090609351
979799999.9999999 0.005446378209983727 -0.9913101031342517
980150000.0 0.0035580702701090705 -0.9923868943050962
980500000.0 0.0015462700008369024 -0.993339614289781
980850000.0 -0.0005568677819748902 -0.9941777255548059
981200000.0 -0.002729172779803002 -0.994913776248789
981550000.0 -0.004956530273587445 -0.9955607225952536
981900000.0 -0.007231159443588486 -0.9961303823776675
982250000.0 -0.009550253428530497 -0.9966325090899356
982600000.0 -0.011914953326999378 -0.9970741185495211
982950000.0 -0.014329531295269371 -0.9974588094014345
983300000.0 -0.01680058077683766 -0.997785901170856
983650000.0 -0.019335915331721576 -0.99804930349603
984000000.0 -0.021942752231417006 -0.998236192253976
984350000.0 -0.024624656023923053 -0.9983258979694061
984700000.0 -0.027376828441183554 -0.9982899952422102
985050000.0 -0.030180044774546444 -0.9980953219397579
985400000.0 -0.03299528308339034 -0.9977119025817252
985750000.0000001 -0.03576351341460726 -0.9971260692205655
986100000.0 -0.03841575036392836 -0.9963544040863228
986450000.0 -0.040893552212367734 -0.9954490514183052
986799999.9999999 -0.0431705191617241 -0.9944866087701616
987150000.0 -0.045260846214880635 -0.99354421053313
987500000.0 -0.04720967740598181 -0.9926771251130269
987850000.0 -0.04907362499318524 -0.9919097053385154
988200000.0 -0.05090385079134929 -0.9912398187407583
988549999.9999999 -0.05273773800816306 -0.9906492485461936
988900000.0 -0.054597982793224364 -0.9901132779662745
989250000.0 -0.05649535293367458 -0.9896067701418724
989600000.0 -0.05843217091592939 -0.9891069840967428
989950000.0 -0.06040512458211278 -0.9885943173621548
990300000.0 -0.062407048976033386 -0.9880520434784452
990650000.0 -0.06442776913905296 -0.9874657288559306
991000000.0 -0.06645419579411088 -0.9868227113009194
991350000.0 -0.06846983437224413 -0.986111867041987
991700000.0 -0.07045381669313039 -0.9853238601687809
992050000.0 -0.07237955306528354 -0.9844521269306336
992400000.0 -0.07421318159534851 -0.9834949745245092
992750000.0 -0.0759122380335514 -0.9824593342569866
993100000.0000001 -0.07742550267362969 -0.9813667959834236
993450000.0 -0.07869592126992014 -0.9802622741126809
993800000.0 -0.07966974983528219 -0.9792243911815831
994150000.0 -0.08031573830888372 -0.97837350441286
994500000.0 -0.08065566545785396 -0.9778680613884858
994850000.0 -0.0807980878271975 -0.9778761363618659
995200000.0 -0.08095164530927074 -0.9785163798319163
995550000.0 -0.0813885884480895 -0.9797892392896059
995900000.0 -0.08235726231962964 -0.9815473845792952
996250000.0 -0.08399265893357216 -0.9835401436624408
996600000.0 -0.08628606194017474 -0.9855064812867012
996950000.0 -0.08912381903583161 -0.9872527846054109
997300000.0 -0.09235334247226695 -0.9886782989080085
997650000.0 -0.09583393097015269 -0.9897583571743465
998000000.0 -0.09945935266410871 -0.9905134032378564
998350000.0 -0.10315988286583899 -0.9909825913981058
998700000.0 -0.10689522461167977 -0.9912073136139026
999050000.0 -0.11064569459649737 -0.9912229637818791
999400000.0 -0.11440474657860378 -0.9910556919893886
999749999.9999999 -0.1181734433780185 -0.9907215788647235
1000100000.0000002 -0.1219564912570898 -0.9902266783643188
1000450000.0000001 -0.12575917364130318 -0.9895671387098453
1000799999.9999999 -0.12958448668493916 -0.988729092655374
1001150000.0 -0.1334297683366264 -0.9876883486938082
1001500000.0 -0.13728206633049045 -0.9864102825157057
1001849999.9999999 -0.14111147662909274 -0.9848509068589821
1002200000.0 -0.14486196487808678 -0.9829610725120785
1002549999.9999999 -0.14844038342321197 -0.9806971520764236
1002899999.9999999 -0.15170760818818102 -0.978042699254424
1003250000.0 -0.15448183393893472 -0.9750439086358756
1003600000.0 -0.1565707080436891 -0.9718521013649799
1003949999.9999999 -0.1578450227464796 -0.9687459395025177
1004300000.0 -0.15833523563183888 -0.9660894411634697
1004650000.0 -0.15828276854478873 -0.9642088174885833
1004999999.9999999 -0.15807770857679432 -0.9632516875043069
1005350000.0 -0.15810714300021467 -0.9631366653813977
1005700000.0 -0.15862515256036308 -0.9636257173335296
1006049999.9999996 -0.15972014590657657 -0.9644447537644391
1006400000.0 -0.16135932876572473 -0.9653686466405674
1006749999.9999998 -0.163451710102766 -0.9662485392760412
1007100000.0000001 -0.16589395070223656 -0.9670026697892202
1007450000.0 -0.1685933417911905 -0.9675957597040823
1007800000.0 -0.17147511965936496 -0.9680203318962819
1008150000.0000001 -0.17448200114330042 -0.9682837383672428
1008500000.0 -0.17757090142681842 -0.968400408360495
1008850000.0 -0.18070923104800868 -0.9683877933569358
1009200000.0000001 -0.18387170131661795 -0.9682646861478119
1009550000.0 -0.1870379140662607 -0.9680510532803792
1009900000.0 -0.1901908224151858 -0.9677689158717429
1010250000.0000001 -0.19331621988590542 -0.9674440667890754
1010600000.0 -0.19640366769233553 -0.9671084837308197
1010950000.0 -0.19944967396681273 -0.9668030679032374
1011299999.9999999 -0.2024643576752071 -0.9665795190638203
1011649999.9999999 -0.20548266447459673 -0.9664983256087527
1012000000.0 -0.20857879279714142 -0.9666170661837187
1012350000.0000001 -0.2118752702466764 -0.9669621993603527
1012699999.9999999 -0.21552725597722477 -0.9674864092966422
1013050000.0 -0.21966409319866081 -0.9680391635249416
1013400000.0000001 -0.2243087039114955 -0.9683973433665432
1013749999.9999999 -0.22934558688934498 -0.9683617277621399
1014100000.0 -0.23458006596182412 -0.9678445112070674
1014450000.0000001 -0.2398346903714958 -0.9668757212688044
1014799999.9999999 -0.2450036574099338 -0.965546842324799
1015150000.0 -0.2500508625118406 -0.9639533706404746
1015499999.9999999 -0.2549832956506696 -0.9621661669264366
1015849999.9999999 -0.25982629762098525 -0.9602262993526964
1016200000.0 -0.2646084903374657 -0.9581498577185642
1016550000.0000001 -0.26935449616330703 -0.955934280878423
1016899999.9999999 -0.27408182292243305 -0.9535630824443726
1017250000.0 -0.2787992313855816 -0.95100851421745
1017600000.0000001 -0.28350494286877925 -0.948232591953738
1017949999.9999999 -0.28818359219961454 -0.9451871246678887
1018300000.0 -0.2928009447213964 -0.941813555924158
1018649999.9999999 -0.297295253570346 -0.9380439023965186
1018999999.9999999 -0.3015640014475658 -0.9338052143961127
1019350000.0 -0.3054452703073957 -0.9290322516358938
1019699999.9999999 -0.3086957046772045 -0.9236968203453811
1020049999.9999999 -0.3109754625686733 -0.9178663359464974
1020400000.0 -0.31186967874852745 -0.9118018013573115
1020750000.0 -0.3110035635764071 -0.9060766693531559
1021099999.9999999 -0.30830548336311664 -0.9016169433520675
1021450000.0 -0.3043423618622027 -0.8994719639718916
1021800000.0 -0.30039168343520223 -0.9002484625380827
1022149999.9999999 -0.29793191028637855 -0.9036083803808888
1022500000.0 -0.29787195002703576 -0.9084127491505889
1022850000.0 -0.30024924778344714 -0.9134010700824414
1023200000.0000001 -0.3045326941674714 -0.9177250359232902
1023549999.9999998 -0.31006404069852905 -0.9210322229034726
1023900000.0 -0.31630729243534716 -0.9232992137781648
1024249999.9999996 -0.3229052222491716 -0.924651576350803
1024600000.0 -0.3296482963647241 -0.9252532370949815
1024950000.0 -0.3364269020484043 -0.9252563625510102
1025300000.0000001 -0.343192846944413 -0.9247850216648311
1025650000.0 -0.34993397052420666 -0.9239335694283484
1026000000.0 -0.35665898191610457 -0.922769824466261
1026349999.9999996 -0.3633889280836085 -0.9213385997842933
1026700000.0 -0.37015244956231 -0.9196637062233324
1027050000.0 -0.37698259224392205 -0.9177475128574162
1027400000.0000001 -0.38391287378596517 -0.915567467395086
1027750000.0 -0.39096922682178464 -0.9130695150130503
1028099999.9999995 -0.3981522480912705 -0.9101606395412176
1028449999.9999999 -0.4054025325028381 -0.9067099001972191
1028799999.9999999 -0.41254917607910624 -0.9025823397723316
1029150000.0 -0.4192774146098646 -0.8977408674137437
1029500000.0000001 -0.42521341100443605 -0.892399703495632
