!Created with skrf (http://scikit-rf.org).
# Hz S RI R 50.0 
!freq ReS11 ImS11
700000000.0 0.32289141551277056 -0.9453975879960705
700350000.0 0.3220217764599609 -0.945742739574934
700700000.0000001 0.3211354000914307 -0.9460643826328046
701049999.9999999 0.32023696583015276 -0.9463606466258094
701400000.0 0.3193310413085807 -0.9466308256627272
701750000.0 0.31842176649909415 -0.9468751161770802
702100000.0000001 0.3175127060494471 -0.9470942920521599
702450000.0000001 0.3166068559707182 -0.9472893975256919
702800000.0 0.3157067640337608 -0.94746151047619
703150000.0 0.31481471690215235 -0.9476116003410517
703499999.9999999 0.31393295303415925 -0.9477404851515817
703850000.0000001 0.3130638697659779 -0.9478488826052518
704200000.0 0.31221019961670393 -0.9479375476952876
704550000.0 0.31137513208224127 -0.9480074894382384
704900000.0 0.3105623532484036 -0.9480602568648508
705250000.0 0.30977596914799205 -0.9480982754738538
705600000.0 0.30902027519850794 -0.9481251969743913
705950000.0 0.3082993412771867 -0.9481461976475434
706300000.0 0.3076164093604227 -0.9481681303302674
706650000.0 0.30697315423483695 -0.9481994168055129
707000000.0 0.30636893201565957 -0.9482495835170888
707350000.0 0.3058002108047551 -0.9483284135653816
707700000.0000001 0.30526039963059004 -0.9484448099237562
708049999.9999999 0.3047402259620374 -0.9486055991221849
708400000.0000001 0.30422865703699475 -0.9488145813301316
708750000.0 0.3037141736036902 -0.9490720923077502
709099999.9999999 0.3031860793664014 -0.9493751857886756
709450000.0000001 0.30263553205354954 -0.949718344080005
709799999.9999999 0.3020561045097956 -0.9500944781658001
710150000.0 0.3014438536273531 -0.9504959439169993
710500000.0 0.3007970093199091 -0.9509153664729253
710850000.0000001 0.3001154534623533 -0.9513461743261638
711200000.0 0.2994001469701528 -0.9517828424140802
711550000.0 0.2986526148586134 -0.9522209016185408
711900000.0 0.29787454618087467 -0.9526567904692106
712250000.0 0.2970675262785991 -0.9530876177699614
712600000.0 0.2962328972032257 -0.9535108880030337
712950000.0 0.29537173490154905 -0.9539242256912519
713300000.0 0.29448493239012014 -0.9543251259212167
713650000.0 0.2935733800873587 -0.954710757303585
714000000.0000001 0.2926382318250117 -0.9550778490617261
714350000.0 0.29168123309314464 -0.9554227009993073
714700000.0 0.2907050647888583 -0.9557413557255755
715049999.9999999 0.28971362505746157 -0.9560299561526133
715399999.9999999 0.2887121469651512 -0.9562852693921524
715750000.0000001 0.2877070525496632 -0.9565052931828906
716100000.0 0.2867054944900336 -0.9566897949742417
716450000.0000001 0.28571463473687814 -0.9568406062466699
716799999.9999999 0.2847408194093086 -0.9569615403547211
717150000.0 0.2837888715900935 -0.9570579190754552
717500000.0 0.28286169455335086 -0.9571358299198451
717850000.0 0.28196026702124377 -0.9572013219192175
718200000.0 0.281083979088581 -0.957259741865097
718549999.9999999 0.28023116833569206 -0.9573153327350354
718900000.0 0.279399698785122 -0.9573711146405747
719250000.0 0.2785874646464196 -0.9574289943082038
719600000.0000001 0.27779275988366103 -0.9574900200095648
719950000.0 0.2770145037415456 -0.9575547061368813
720300000.0 0.27625233910811675 -0.9576233759671305
720650000.0 0.27550662649314517 -0.9576964961653922
720999999.9999999 0.2747783488819332 -0.9577749932196795
721350000.0 0.2740689295351275 -0.9578605471564244
721700000.0 0.27337995231775153 -0.9579558514100757
722049999.9999999 0.2727127681058178 -0.9580648107614661
722399999.9999999 0.27206797765286617 -0.9581926247137535
722750000.0000001 0.2714448080498565 -0.9583456785467516
723100000.0 0.27084045106620974 -0.9585311526260165
723449999.9999999 0.2702495016965896 -0.9587562836092687
723799999.9999999 0.2696636992730351 -0.9590272896032135
724149999.9999999 0.2690721851185507 -0.9593481058029234
724500000.0 0.26846240074973016 -0.9597192258002577
724850000.0 0.2678215501518118 -0.9601370206691682
725200000.0 0.2671383090398296 -0.9605938283459199
725549999.9999999 0.26640431639918105 -0.9610788627359607
725900000.0 0.2656150355236918 -0.9615796939732703
726250000.0 0.2647698093783664 -0.9620838609551021
726600000.0 0.2638712246498642 -0.9625801900594098
726950000.0 0.26292408977140264 -0.963059572449452
727300000.0 0.261934361406662 -0.9635151743391973
727650000.0 0.26090826125165795 -0.9639422121845542
727999999.9999999 0.2598516939720711 -0.9643374815097956
728350000.0000001 0.2587699719346566 -0.9646988081601364
728700000.0 0.2576677959330128 -0.9650245385030778
729049999.9999999 0.2565494256571511 -0.9653131348062174
729399999.9999999 0.2554189803715323 -0.9655629094617202
729749999.9999999 0.25428082174951255 -0.9657719184828385
730100000.0 0.25313997518312187 -0.9659380348472191
730450000.0 0.25200253655137306 -0.9660592263392977
730800000.0 0.25087598681294804 -0.966134058546284
731149999.9999999 0.249769302403493 -0.9661624174971095
731500000.0 0.2486927221284393 -0.9661463854435794
731850000.0 0.24765704180800985 -0.9660911063078231
732200000.0 0.24667239327597046 -0.9660053705214988
732550000.0 0.24574664099708632 -0.9659015957339261
732900000.0 0.2448837545521131 -0.9657949614670959
733250000.0 0.24408267021417396 -0.9657017092206015
733600000.0 0.24333710127767422 -0.9656369665788688
733950000.0000001 0.24263645434307396 -0.965612705820037
734299999.9999999 0.24196759202852614 -0.9656364300953755
734650000.0 0.2413168869430667 -0.9657108861688011
734999999.9999999 0.24067199160650138 -0.9658347098836937
735349999.9999999 0.24002296756991137 -0.9660036363067137
735700000.0000001 0.23936270790660863 -0.9662118494056327
736049999.9999999 0.23868679863723524 -0.9664531572427254
736400000.0 0.23799304313373532 -0.9667218455324464
736749999.9999999 0.2372808495958218 -0.9670131977206283
737100000.0 0.23655061312780423 -0.9673237420038359
737450000.0 0.23580315521975043 -0.9676513034013731
737800000.0 0.23503923521656983 -0.9679949241832527
738150000.0 0.23425912450159464 -0.9683546879637378
738499999.9999999 0.23346223161146773 -0.9687314538405754
738850000.0 0.23264678156797092 -0.9691264846224179
739200000.0 0.23180958208308033 -0.9695409443526956
739550000.0 0.230945947325574 -0.9699752540374353
739899999.9999999 0.23004988312467228 -0.9704283404899963
740250000.0 0.2291146400100173 -0.9708968936845166
740600000.0 0.22813367888250308 -0.9713748423709725
740949999.9999999 0.22710195033438968 -0.9718533109769109
741299999.9999999 0.2260171976386029 -0.97232125864738
741649999.9999999 0.22488086087251308 -0.9727667876462355
742000000.0 0.2236982109127817 -0.9731788140264481
742349999.9999999 0.22247760899129038 -0.9735485905561889
742700000.0000001 0.22122913960084944 -0.97387061103498
743049999.9999999 0.2199630900979025 -0.9741426949575525
743400000.0 0.21868873031989672 -0.9743653789299684
743750000.0 0.21741363829211846 -0.9745409413377168
744100000.0 0.2161435795035332 -0.9746723985753566
744450000.0 0.21488279653666936 -0.974762699040866
744799999.9999999 0.2136345278007189 -0.974814205772734
745150000.0 0.21240160898424892 -0.9748284644236533
745500000.0 0.21118706735342874 -0.974806214487592
745850000.0 0.2099946636647551 -0.9747476035916827
746200000.0 0.20882935602154784 -0.9746525858380388
746550000.0 0.20769765315247452 -0.9745215077259366
746899999.9999999 0.20660779483416702 -0.9743558948309077
747249999.9999999 0.20556965163208685 -0.9741594350448499
747600000.0 0.20459419011695246 -0.9739390943237607
747950000.0 0.20369233456814378 -0.9737061874187342
748299999.9999999 0.20287312288018833 -0.9734770696784859
748649999.9999999 0.20214125797512578 -0.9732729765070829
749000000.0 0.2014945044714147 -0.9731185386783028
749350000.0 0.20092175869166473 -0.9730387897056512
749700000.0 0.20040276498646226 -0.9730550869867811
750049999.9999999 0.19991008873485688 -0.9731810554531963
750399999.9999999 0.19941308995898205 -0.9734199646417074
750750000.0 0.19888271577333777 -0.9737645199366172
751100000.0 0.1982955609415082 -0.9741990489312409
751450000.0 0.19763608083857248 -0.9747031163129305
751800000.0 0.19689673470529512 -0.9752552592362286
752150000.0 0.1960765997404596 -0.9758358507181691
752500000.0 0.19517928784650873 -0.9764287051049718
752849999.9999999 0.19421086796063353 -0.9770215448140367
753200000.0000001 0.1931781917613356 -0.977605684950685
753550000.0 0.19208774441764376 -0.9781753036210662
753899999.9999999 0.1909449779327263 -0.9787265666915232
754249999.9999999 0.18975402563693333 -0.9792567600834755
754600000.0000001 0.1885177031975777 -0.9797634965910207
754950000.0 0.18723773723247433 -0.9802440196364435
755300000.0 0.18591520204447443 -0.9806946204043518
755649999.9999999 0.18455117058402787 -0.981110210734131
755999999.9999999 0.18314758076305154 -0.9814841426185895
756350000.0 0.18170826443494925 -0.9818084170353454
756700000.0 0.18023997287250665 -0.9820744412077846
757050000.0 0.17875308060520667 -0.9822744152228176
757400000.0 0.17726154217577778 -0.9824032080110586
757750000.0 0.17578175283701664 -0.9824602531138082
758100000.0 0.17433032438425222 -0.9824507352120551
758450000.0 0.17292133368613755 -0.9823854095455445
758799999.9999999 0.17156399532417904 -0.9822789047660675
759149999.9999999 0.17026160993915518 -0.9821470551942174
759500000.0 0.16901205594247426 -0.9820042231770794
759849999.9999999 0.16780942364652723 -0.9818614428225587
760200000.0000001 0.16664605754548112 -0.9817257114325888
760549999.9999999 0.1655143679875758 -0.981600259647714
760900000.0 0.16440809299429032 -0.9814853952461497
761250000.0 0.16332298841752468 -0.9813795371333219
761599999.9999999 0.16225708357518914 -0.9812802022891407
761950000.0 0.16121066889387053 -0.9811848591214711
762299999.9999999 0.1601861384826494 -0.9810916616414105
762650000.0 0.1591877419532895 -0.9810001253126582
763000000.0 0.15822123033848867 -0.980911809695719
763350000.0 0.15729331860576484 -0.9808310440147658
763700000.0 0.1564108375163208 -0.9807656683050403
764050000.0 0.15557942674325748 -0.980727657167398
764400000.0 0.15480166647417715 -0.9807333452749942
764749999.9999999 0.154074712900983 -0.9808028184012652
765100000.0 0.1533878377057537 -0.9809579744201498
765450000.0 0.15272072117472302 -0.9812189712648303
765799999.9999999 0.1520436652385893 -0.9815994112246131
766149999.9999999 0.15132065605583545 -0.9821015486962577
766500000.0000001 0.1505151457190937 -0.9827134870690719
766850000.0 0.14959691537698583 -0.9834099918599278
767199999.9999999 0.1485474813433446 -0.9841570173135089
767549999.9999999 0.14736207171525767 -0.9849182294257914
767899999.9999999 0.1460479198533048 -0.9856610221300628
768250000.0 0.14462022769354105 -0.9863602086713128
768600000.0 0.1430976737266761 -0.9869989806914099
768950000.0 0.14149883536963703 -0.9875678300861062
769299999.9999999 0.13984004424584984 -0.9880624833045686
769650000.0 0.13813455811656894 -0.9884816950891928
770000000.0 0.13639267214184048 -0.988825368357461
770350000.0 0.1346223985248497 -0.9890931588165475
770700000.0 0.13283046047093477 -0.9892835604641781
771050000.0 0.13102346800712178 -0.9893934283465858
771400000.0 0.12920922052134115 -0.9894179317463716
771749999.9999999 0.12739809403837415 -0.9893510051369695
772100000.0000001 0.1256044068338929 -0.9891864408873514
772450000.0 0.12384750386189874 -0.9889197985643532
772799999.9999999 0.12215207137383216 -0.9885512117387061
773149999.9999999 0.12054697513623353 -0.9880888534863399
773499999.9999999 0.11906192459983184 -0.9875522312123662
773850000.0 0.1177218101081895 -0.9869737983324578
774200000.0 0.116539779380266 -0.9863971351014164
774550000.0 0.1155115385928625 -0.9858708487644006
774899999.9999999 0.11461380850743563 -0.9854394379608258
775250000.0 0.1138083778792891 -0.9851344417150776
775600000.0 0.11305037905834342 -0.9849694585139961
775950000.0 0.112297331274478 -0.9849405964860882
776300000.0 0.11151567567379755 -0.9850311692325784
776650000.0 0.11068344101085398 -0.9852179741263403
777000000.0 0.10978963204324432 -0.9854768138146921
777350000.0 0.10883181875520992 -0.9857861579018262
777700000.0000001 0.10781327421341919 -0.9861289415485954
778049999.9999999 0.10674045013331679 -0.9864930318472491
778400000.0 0.10562105952104517 -0.9868709585498826
778749999.9999999 0.10446272150453045 -0.9872593514101933
779099999.9999999 0.10327199235373036 -0.9876583305583451
779450000.0000001 0.10205358531744252 -0.9880709322638979
779799999.9999999 0.10080961539274058 -0.9885025283810813
780150000.0 0.09953877377914966 -0.9889601004384516
780499999.9999999 0.09823545028063063 -0.9894511543053908
780850000.0 0.09688900264830641 -0.9899820361818797
781200000.0 0.09548361885311019 -0.9905555111046507
781550000.0 0.09399944229067436 -0.9911677990272746
781900000.0 0.09241559111586534 -0.9918058670660655
782249999.9999999 0.09071508058179895 -0.9924464089360108
782600000.0 0.08889040968317297 -0.993057974795156
782950000.0 0.08694740667614986 -0.9936065349615144
783300000.0 0.08490508805097796 -0.9940627062765159
783649999.9999999 0.08279123370914898 -0.994407520491012
784000000.0 0.08063577840052955 -0.9946343504966951
784350000.0 0.07846499326276885 -0.9947468842220833
784699999.9999999 0.0762983385680317 -0.9947549158012868
785049999.9999999 0.07414810557656398 -0.9946700385295599
785399999.9999999 0.07202087621506892 -0.9945024897008187
785750000.0 0.06991970009227982 -0.9942594182330999
786099999.9999999 0.06784627489801687 -0.9939442899342232
786450000.0000001 0.06580285078626819 -0.9935570258065537
786799999.9999999 0.06379385656515862 -0.9930945840858358
787150000.0 0.0618273531480773 -0.9925518793113411
787500000.0 0.059916403561726395 -0.9919231044725264
787850000.0 0.05808033800082746 -0.9912036612590643
788200000.0 0.05634568294574249 -0.990392986507467
788549999.9999999 0.054746197652567496 -0.989498525411523
788900000.0 0.05332104563046247 -0.9885408059134186
789250000.0 0.052109804024806694 -0.9875588220008247
789600000.0 0.05114324906824402 -0.9866136565886707
789950000.0 0.05043036147896829 -0.985786904185021
790300000.0 0.049945089155191746 -0.9851703689984048
790649999.9999999 0.049619714215451916 -0.9848465602504317
790999999.9999999 0.04935167062361495 -0.984865676864209
791350000.0 0.04902460294787231 -0.9852298350453752
791700000.0 0.048535351342958666 -0.985893311368504
792049999.9999999 0.047814395213662486 -0.9867783837973685
792399999.9999999 0.04683218849745241 -0.9877976706976843
792750000.0 0.045592752647510615 -0.9888727107315816
793100000.0 0.04412123681785263 -0.9899437473290342
793450000.0 0.0424517735529098 -0.9909714008228672
793799999.9999999 0.040618787363277065 -0.9919335306676578
794149999.9999999 0.03865212501151877 -0.992820404359043
794500000.0 0.03657505878375389 -0.9936300289336304
794850000.0 0.03440401766160889 -0.9943643577843571
795200000.0 0.03214919459369053 -0.9950264145226049
795550000.0 0.029815560990255063 -0.9956181004706776
795900000.0 0.02740414222053289 -0.996138413904694
796250000.0 0.024913648855583503 -0.9965819053824692
796599999.9999999 0.022342719925597 -0.9969373977444935
796950000.0000001 0.019693071245058147 -0.9971873277255974
797300000.0 0.016973615247143525 -0.9973084999105426
797649999.9999999 0.014204922646525342 -0.9972753845237147
797999999.9999999 0.011422189308530228 -0.9970668069940545
798350000.0000001 0.008673786657884042 -0.996675271186954
798700000.0 0.006013090420803113 -0.9961153280913289
799050000.0 0.003484873952559253 -0.9954254960038961
799399999.9999999 0.0011123496293988788 -0.994660451353852
799749999.9999999 -0.001107936469932791 -0.993876390581062
800100000.0000001 -0.0032010296791269988 -0.9931171771508776
800450000.0 -0.005202455325835131 -0.9924074468609738
800799999.9999999 -0.007147377116961284 -0.9917533871781343
801150000.0 -0.009063787328966288 -0.991147908680043
801500000.0 -0.010969987731119846 -0.9905765557336661
801849999.9999999 -0.012874806220509627 -0.9900221427997259
802200000.0 -0.01477889132477972 -0.9894677094387268
802549999.9999999 -0.01667602925775874 -0.988898213935369
802900000.0 -0.018554029096263858 -0.9883015994550339
803250000.0 -0.02039511624458057 -0.9876698174282748
803599999.9999999 -0.022176019244115885 -0.9870002974968531
803950000.0 -0.023868151928937653 -0.9862982736965846
804299999.9999999 -0.025438588579514587 -0.9855802584620382
804650000.0 -0.02685295074923355 -0.9848786375674385
805000000.0 -0.028081757470706292 -0.9842465653097964
805349999.9999999 -0.029111752160408455 -0.9837607863290844
805700000.0 -0.02996215560014015 -0.9835178733298072
806049999.9999999 -0.030701507202225142 -0.9836182632858959
806400000.0 -0.03145452248756675 -0.9841359823294542
806749999.9999999 -0.03238602967829812 -0.9850826726245558
807100000.0000001 -0.03365911309520497 -0.9863866385406053
807450000.0 -0.035385245251387254 -0.9879057264923654
807799999.9999999 -0.03759535818044418 -0.9894707148197208
808150000.0 -0.04024645395588278 -0.9909334187658031
808499999.9999999 -0.04325267564785201 -0.9921946518733872
808850000.0 -0.046518850431996384 -0.9932065574873497
809200000.0 -0.049962419744169984 -0.9939593149856413
809549999.9999999 -0.05352193685935108 -0.9944643009979903
809900000.0 -0.05715664001636739 -0.9947404721048361
810250000.0000001 -0.06084201318627713 -0.9948055624024508
810600000.0 -0.06456435913806852 -0.9946711744498276
810950000.0 -0.06831559257892139 -0.9943403328140947
811299999.9999999 -0.07208835239861566 -0.9938064370418566
811649999.9999999 -0.07587100834723659 -0.9930531606051681
812000000.0000001 -0.07964199205473477 -0.992055514248812
812350000.0 -0.0833630856460369 -0.9907830515888851
812700000.0 -0.08697208120116806 -0.9892070266608098
813049999.9999999 -0.09037702910166973 -0.9873138324524691
813400000.0 -0.0934573755002503 -0.9851260321026497
813749999.9999999 -0.09608038333560259 -0.9827275784980262
814100000.0 -0.09813960460954768 -0.9802803604594512
814450000.0 -0.0996089797151774 -0.9780108154418842
814799999.9999999 -0.10058365112614875 -0.9761534649979368
815150000.0 -0.10127056710347099 -0.9748708950717292
815499999.9999999 -0.10192264950984187 -0.9741995673799158
815850000.0 -0.10275683161200927 -0.9740562297411779
816200000.0 -0.1039049295321064 -0.9742911054262737
816549999.9999999 -0.10541145151905035 -0.9747466275159744
816900000.0 -0.10725943529012166 -0.9752937580729186
817249999.9999999 -0.1094004805419212 -0.9758432342947272
817600000.0 -0.11177663494743267 -0.9763417831707264
817950000.0 -0.11433242319286341 -0.9767632130132913
818300000.0 -0.11701980009401997 -0.977099894350316
818649999.9999999 -0.11979924457342978 -0.9773565744977831
819000000.0000001 -0.12263931242929105 -0.9775466765903684
819350000.0 -0.12551608567973188 -0.9776906071280091
819699999.9999999 -0.12841345341410754 -0.9778154416214337
820050000.0 -0.13132498102078344 -0.9779552157134006
820400000.0 -0.13425804686137222 -0.9781506180804864
820749999.9999999 -0.13724049799404825 -0.9784459809937672
821100000.0 -0.14032846281244055 -0.9788803159391087
821450000.0000001 -0.14361020775831257 -0.9794692093778951
821800000.0 -0.14719595864763407 -0.9801791520292792
822150000.0 -0.15118414096585453 -0.980907937364704
822499999.9999999 -0.15561115935516018 -0.9814955828674443
822850000.0 -0.160418607459219 -0.9817768319413661
823200000.0000001 -0.16547162795041326 -0.9816458777177504
823549999.9999999 -0.17061796504292986 -0.9810849014166074
823900000.0 -0.17574149761665786 -0.980142978309055
824249999.9999999 -0.1807807733903401 -0.9788939882839843
824600000.0 -0.18571894678141193 -0.9774039991809595
824950000.0000001 -0.19056450244321255 -0.9757168856689735
825300000.0 -0.19533492114042106 -0.9738525492277998
825649999.9999999 -0.20004610214484653 -0.9718102592474025
825999999.9999999 -0.2047059498529613 -0.9695727225284554
826350000.0 -0.2093097193330416 -0.9671093755630142
826699999.9999999 -0.21383513043190333 -0.96437906020631
827050000.0 -0.2182357882923569 -0.9613332303563908
827399999.9999999 -0.22243196412723593 -0.957921822654187
827750000.0 -0.2262987790897958 -0.9541053668777317
