!Created with skrf (http://scikit-rf.org).
# Hz S RI R 50.0 
!freq ReS11 ImS11
800000000.0 0.09191824384864344 -0.9927094384367241
800350000.0 0.09115725149091497 -0.9926316820753733
800700000.0000001 0.0904081609826412 -0.9925587193029697
801049999.9999999 0.08967061962988748 -0.992490471952105
801399999.9999999 0.08894480693715112 -0.9924269977840958
801750000.0 0.08823135857474229 -0.9923686830253469
802100000.0 0.0875312486972305 -0.9923164170256318
802449999.9999999 0.08684562681187752 -0.992271748103535
802800000.0 0.08617560033578137 -0.9922370126379864
803149999.9999999 0.08552195339437751 -0.992215418554347
803500000.0 0.08488479888609307 -0.9922110511295277
803850000.0 0.0842631771774709 -0.9922287570055899
804200000.0 0.08365464250353616 -0.9922738579716686
804550000.0 0.08305491438935725 -0.9923516588897883
804899999.9999999 0.08245770531026175 -0.9924667533871402
805250000.0 0.08185484715175356 -0.99262219844707
805600000.0000001 0.08123680413907769 -0.9928187097300781
805950000.0 0.08059356734069867 -0.9930540875673834
806300000.0 0.07991579525899911 -0.993323074891045
806649999.9999999 0.07919595141571173 -0.9936177499105283
807000000.0 0.0784291580993755 -0.9939283943651521
807349999.9999999 0.07761356511842371 -0.9942446248169963
807700000.0000001 0.07675019004161088 -0.9945565047596723
808050000.0 0.07584234483438951 -0.994855396625485
808399999.9999999 0.074894854183847 -0.9951344303850922
808750000.0 0.0739132723112198 -0.9953885938935487
809099999.9999999 0.07290324399838749 -0.9956145376311722
809450000.0 0.07187007595353051 -0.9958102170840424
809800000.0 0.07081852013386136 -0.9959744830721956
810149999.9999999 0.06975273413885813 -0.9961066975212409
810500000.0 0.0686763722169465 -0.9962064187565276
810850000.0000001 0.0675927640613081 -0.9962731762769745
811200000.0 0.06650514779300953 -0.9963063422673228
811550000.0 0.06541693153918049 -0.9963051036745143
811899999.9999999 0.06433196086388931 -0.9962685406703244
812249999.9999999 0.06325476514580936 -0.9961958203298101
812600000.0000001 0.06219074471410169 -0.996086513420108
812950000.0 0.06114624441212335 -0.995941031720676
813299999.9999999 0.060128444391816194 -0.9957611578763605
813650000.0 0.05914499676931917 -0.9955505971042032
814000000.0 0.05820336299352197 -0.9953154262670723
814349999.9999999 0.05730987471702037 -0.9950642711436604
814700000.0 0.056468648039616265 -0.994808041279321
815049999.9999999 0.05568059452850849 -0.9945591272517831
815400000.0 0.05494283051654769 -0.9943301218010198
815750000.0 0.0542487284514267 -0.9941323138122894
816099999.9999999 0.05358867226573172 -0.9939743282460273
816450000.0 0.05295134450993072 -0.993861264625308
816799999.9999999 0.05232520319626216 -0.9937945189167965
817150000.0 0.051699783207729 -0.9937722445701012
817500000.0 0.05106657321238123 -0.9937902320684626
817849999.9999999 0.05041939421682656 -0.9938429280235332
818200000.0 0.04975435223809188 -0.9939243642095446
818549999.9999999 0.04906951012453953 -0.9940288676809861
818900000.0 0.04836442655188572 -0.9941515195070885
819249999.9999999 0.04763967325675289 -0.9942883924054169
819600000.0000001 0.04689639440773852 -0.9944366235575474
819950000.0 0.04613593266718474 -0.9945943786707485
820299999.9999999 0.045359521214930365 -0.9947607496280354
820650000.0 0.0445680291192434 -0.9949356101893085
820999999.9999999 0.04376174597674626 -0.9951194373655714
821350000.0 0.04294019803045612 -0.9953130927915868
821700000.0 0.042102000343428536 -0.9955175503778806
822049999.9999999 0.041244766707432434 -0.9957335561165903
822400000.0 0.040365118097384356 -0.9959612167480754
822750000.0000001 0.03945884537819783 -0.9961995397775312
823100000.0 0.03852128135559707 -0.9964459883124925
823450000.0 0.037547906849401236 -0.9966961613253671
823799999.9999999 0.03653514651740869 -0.9969437402060171
824149999.9999999 0.03548121390297643 -0.997180822983407
824500000.0000001 0.0343867829101675 -0.9973986754498196
824850000.0 0.03325525392641432 -0.9975887797700279
825200000.0 0.03209248364342909 -0.9977439227907473
825549999.9999999 0.030906029435046167 -0.9978590226504875
825900000.0 0.029704130877949875 -0.9979314813560787
826249999.9999999 0.028494720906799942 -0.9979610270674001
826600000.0 0.02728470231945357 -0.9979491760727044
826950000.0 0.02607959356207007 -0.9978985251295918
827299999.9999999 0.024883519344548688 -0.9978120691440118
827650000.0 0.023699447193492484 -0.9976926674136238
827999999.9999999 0.022529556333229006 -0.9975427037802458
828350000.0 0.02137564827060323 -0.9973639322375158
828700000.0 0.02023954302575992 -0.9971574761585804
829049999.9999999 0.01912343386415266 -0.9969239487569314
829400000.0 0.018030189655781403 -0.9966636737127115
829749999.9999999 0.016963596977104867 -0.9963769991342463
830100000.0 0.015928525578065456 -0.996064708985799
830450000.0 0.014930983237374407 -0.9957285389192718
830800000.0 0.013978002632702824 -0.9953717928816099
831149999.9999999 0.01307728003283376 -0.9950000268747159
831500000.0000001 0.012236475898562194 -0.9946217119499259
831850000.0 0.011462111502504813 -0.9942487122462931
832199999.9999999 0.01075807865996331 -0.993896335238543
832550000.0 0.010123936228136676 -0.9935826765140137
832900000.0 0.009553372838504826 -0.9933270579880344
833249999.9999999 0.00903338074433313 -0.993147598638456
833600000.0 0.00854466974143353 -0.9930583298179301
833950000.0000001 0.008063548455236658 -0.9930666116581506
834300000.0 0.007564971122807074 -0.9931716867263771
834650000.0 0.007025949038938273 -0.9933648861395444
834999999.9999999 0.006428361700155261 -0.9936314033683868
835350000.0 0.005760480420816894 -0.9939530013101874
835700000.0000001 0.005017053371236924 -0.994310807927283
836049999.9999999 0.00419828135419642 -0.9946875264689543
836400000.0 0.0033082323265448688 -0.9950687549582807
836749999.9999999 0.002353197712911481 -0.9954434506839978
837100000.0 0.001340309919641347 -0.9958037665269475
837450000.0000001 0.000276547396331539 -0.996144526201669
837800000.0 -0.0008318799516111586 -0.9964625553765443
838149999.9999999 -0.0019798356337711875 -0.9967560071721355
838499999.9999999 -0.0031633345056134576 -0.997023751346407
838850000.0 -0.004379461195258727 -0.9972648504702744
839199999.9999999 -0.005626171478965547 -0.9974781238881476
839550000.0 -0.006901995054625243 -0.9976617968128526
839899999.9999999 -0.008205641367354133 -0.9978132428893343
840250000.0 -0.00953550570331041 -0.9979288498391414
840600000.0 -0.010889086692869698 -0.9980040636671321
840949999.9999999 -0.012262364563828565 -0.9980336864243802
841300000.0 -0.013649252204450513 -0.9980124964554111
841649999.9999999 -0.015041302440447268 -0.9979362035982646
842000000.0 -0.01642789320304694 -0.9978026298139855
842350000.0 -0.01779705665601289 -0.9976128411981298
842700000.0000001 -0.019136928884176563 -0.9973718330961565
843049999.9999999 -0.020437516538701295 -0.9970884028554801
843400000.0000001 -0.02169225454828938 -0.9967740932746176
843750000.0 -0.022898834772027643 -0.9964414620415472
844100000.0 -0.024059058793112487 -0.9961022125772534
844450000.0000001 -0.025177854642834563 -0.9957657359016168
844799999.9999999 -0.02626186803765379 -0.9954383764115038
845149999.9999999 -0.02731807394083635 -0.9951234210934947
845500000.0 -0.028352705073327433 -0.9948215964964058
845850000.0 -0.029370594558909113 -0.9945318015131313
846199999.9999999 -0.030374883664079644 -0.9942518626992526
846550000.0 -0.031366983033688955 -0.993979196859999
846899999.9999999 -0.032346677177275907 -0.9937113500232343
847250000.0 -0.033312294692246114 -0.9934464338768972
847600000.0 -0.03426090705480739 -0.9931835029845448
847950000.0 -0.03518855584666147 -0.9929229177798413
848300000.0 -0.036090539636011665 -0.9926667264055311
848649999.9999999 -0.03696181778131924 -0.9924190747461115
849000000.0 -0.03779760738911686 -0.9921866158382806
849350000.0000001 -0.03859425345004103 -0.9919788329596686
849700000.0 -0.03935042344763795 -0.9918081153161309
850050000.0 -0.0400685910360733 -0.9916893467624114
850399999.9999999 -0.04075660737933806 -0.991638730368394
850750000.0 -0.041428926867182414 -0.9916716518575965
851099999.9999999 -0.04210684744497706 -0.9917996633073551
851450000.0000001 -0.04281712784601083 -0.9920271437458084
851800000.0 -0.043588741991687 -0.9923486779152817
852149999.9999999 -0.044448310067355834 -0.9927483230783141
852500000.0 -0.04541553082122868 -0.99320141210573
852849999.9999999 -0.0465001624274376 -0.9936785050423431
853200000.0 -0.04770149230589782 -0.9941501624329276
853550000.0 -0.04901015546834603 -0.9945909854047799
853899999.9999999 -0.05041130191647719 -0.9949819222596946
854250000.0 -0.05188790841700458 -0.9953107064478924
854600000.0000001 -0.05342338334606489 -0.9955709288130514
854950000.0 -0.05500314484229957 -0.9957604465825058
855300000.0 -0.05661525489569047 -0.9958797031632718
855649999.9999999 -0.05825037102931763 -0.9959302890351609
855999999.9999999 -0.059901286218372984 -0.9959138642486006
856350000.0000001 -0.06156225719016983 -0.995831439330351
856700000.0 -0.0632282378313106 -0.9956829655360364
857049999.9999999 -0.06489407058000568 -0.9954671903261589
857400000.0 -0.06655365500516619 -0.9951817655981019
857750000.0 -0.06819911179992227 -0.9948236379601382
858099999.9999999 -0.06981999458225507 -0.9943897886033046
858450000.0 -0.07140267429658215 -0.9938784068992919
858799999.9999999 -0.07293012789892966 -0.9932905468993429
859150000.0 -0.07438247665497677 -0.9926321882641347
859500000.0 -0.07573866552133407 -0.9919163704261096
859849999.9999999 -0.07697952702117655 -0.9911647202622522
860200000.0 -0.07809200852309411 -0.990407412324638
860549999.9999999 -0.07907359621843374 -0.9896806939497685
860900000.0 -0.07993530175127883 -0.9890218458194668
861250000.0 -0.08070159531680887 -0.9884626996261248
861599999.9999999 -0.08140672692091466 -0.9880238734045423
861950000.0 -0.08208852361918395 -0.9877118427363498
862299999.9999999 -0.08278189119103574 -0.9875196952494816
862650000.0 -0.08351411262574793 -0.9874307700415494
862999999.9999999 -0.08430288102506917 -0.9874234400892977
863350000.0000001 -0.0851567483762814 -0.9874754178617303
863700000.0 -0.08607700604943802 -0.9875667199840551
864049999.9999999 -0.0870600067370994 -0.9876811900122885
864400000.0 -0.08809927886117164 -0.9878069153164394
864749999.9999999 -0.0891871587502332 -0.9879359828539362
865100000.0 -0.09031592235348146 -0.9880639411145069
865450000.0 -0.09147852263292772 -0.9881892024330712
865799999.9999999 -0.09266907320047463 -0.9883125004229092
866150000.0 -0.09388320776688652 -0.9884364308672997
866500000.0000001 -0.09511841608434413 -0.9885650457814313
866850000.0 -0.09637442007736297 -0.9887034280257853
867200000.0 -0.09765360550450469 -0.9888571403696239
867549999.9999999 -0.09896145413694535 -0.9890314216117064
867899999.9999999 -0.10030681979023487 -0.9892300136049794
868250000.0000001 -0.1017017677419631 -0.9894535868074381
868600000.0 -0.10316060562716595 -0.9896979340426824
868950000.0 -0.10469779366004972 -0.9899524235363326
869299999.9999999 -0.10632477477482638 -0.9901995144851594
869650000.0 -0.10804642008657683 -0.9904161460709923
869999999.9999999 -0.10985842196903428 -0.9905772211648073
870350000.0 -0.11174699534362775 -0.9906603207954182
870700000.0 -0.11369133465315623 -0.9906499023346801
871049999.9999999 -0.11566789595278676 -0.9905393434698273
871400000.0 -0.11765474480761406 -0.9903303150095595
871749999.9999999 -0.11963448644950048 -0.9900302382626258
872100000.0 -0.12159527222396233 -0.9896491486091368
872450000.0 -0.12353025532984702 -0.9891970342705609
872799999.9999999 -0.1254362167393352 -0.9886821158784524
873150000.0 -0.12731198067232902 -0.9881100388854038
873499999.9999999 -0.12915696774468083 -0.9874837287935305
873850000.0 -0.13096999575929835 -0.9868036482843626
874200000.0 -0.13274830037953822 -0.9860682814913813
874550000.0 -0.13448669906156185 -0.9852747754642158
874899999.9999999 -0.13617683156305466 -0.9844197599454017
875250000.0000001 -0.1378064597148833 -0.9835004373257061
875600000.0 -0.13935889511926608 -0.982516082845643
875949999.9999999 -0.14081275428258472 -0.9814701066153251
876300000.0 -0.14214242175084885 -0.9803727648260271
876650000.0 -0.14331980740073547 -0.9792443972001326
876999999.9999999 -0.1443181096706988 -0.9781186272482423
877350000.0 -0.14511810918605456 -0.9770442738037578
877700000.0000001 -0.1457166853877379 -0.9760840085118354
878050000.0 -0.14613560699453693 -0.9753076975937514
878400000.0 -0.14642674633448832 -0.9747798016496627
878749999.9999999 -0.14666932268579852 -0.9745434544661976
879100000.0 -0.1469573398197508 -0.9746072929865783
879450000.0000001 -0.14738060509737727 -0.9749415808802296
879799999.9999999 -0.14800693663625436 -0.9754859923671415
880150000.0 -0.14887258323368513 -0.9761652454799739
880499999.9999999 -0.14998292131228602 -0.9769054395425597
880850000.0 -0.15132038602840553 -0.9776454199228077
881200000.0000001 -0.1528547064786051 -0.978341447041378
881550000.0 -0.15455171267279888 -0.978966601715904
881899999.9999999 -0.1563791943470813 -0.9795074164156861
882249999.9999999 -0.15830993182451164 -0.9799597778321674
882600000.0 -0.16032270703906598 -0.9803252420946043
882949999.9999999 -0.16240213912053797 -0.9806081632315669
883300000.0 -0.16453795909817703 -0.9808136152848506
883649999.9999999 -0.16672407608183853 -0.9809459209163631
884000000.0 -0.16895757963848773 -0.9810075766448189
884350000.0 -0.17123767899230347 -0.9809984124535847
884699999.9999999 -0.17356448493371923 -0.9809149092518271
885050000.0 -0.1759374889250932 -0.9807497193892731
885399999.9999999 -0.17835360686836516 -0.9804916015501071
885750000.0 -0.18080479094291468 -0.9801261793358271
886100000.0 -0.18327555304696425 -0.9796380762819715
886450000.0000001 -0.18574130654260168 -0.9790148536166902
886799999.9999999 -0.18816899051237557 -0.9782524809669314
887150000.0000001 -0.19052136481777726 -0.9773607374962772
887500000.0 -0.19276493835138048 -0.9763656778939369
887850000.0 -0.19487895408297007 -0.9753065936032339
888200000.0000001 -0.19686113323842352 -0.974227582239598
888549999.9999999 -0.19872711897008744 -0.9731672825754122
888899999.9999999 -0.20050424371736003 -0.9721514452886558
889250000.0 -0.20222320930446686 -0.9711908014845759
889600000.0 -0.203911307263813 -0.970283440113435
889949999.9999999 -0.20558878215288495 -0.9694192227439513
890300000.0 -0.20726798277281538 -0.9685840665894955
890649999.9999999 -0.2089541271864213 -0.9677630642995118
891000000.0 -0.2106466095204454 -0.9669423485285105
891350000.0 -0.2123402055000489 -0.9661100500244857
891700000.0 -0.2140259153900222 -0.9652567807894716
892050000.0 -0.21569141770467137 -0.9643760083016089
892399999.9999999 -0.21732123087536082 -0.9634646014394967
892750000.0 -0.21889675974208256 -0.9625237686611372
893100000.0000001 -0.22039649657282895 -0.9615605668968101
893450000.0 -0.22179679185592638 -0.9605900926091728
893800000.0 -0.22307381922292036 -0.9596382931479561
894149999.9999999 -0.22420757410632508 -0.9587449312014908
894500000.0 -0.22518875684296463 -0.9579654640309333
894849999.9999999 -0.22602873998820422 -0.9573694888838541
895200000.0000001 -0.22677089013095925 -0.9570325292352284
895550000.0 -0.22749821968912665 -0.9570188052189168
895899999.9999999 -0.22832954689495455 -0.9573571083248628
896250000.0 -0.22939836318491746 -0.9580193980392627
896599999.9999999 -0.2308183427164388 -0.9589161465656688
896950000.0 -0.23265130000269557 -0.9599158667520264
897300000.0 -0.2348949204985208 -0.9608805743032733
897649999.9999999 -0.23749470482994778 -0.9616984858777344
898000000.0 -0.24036949045202577 -0.9622999960491582
898350000.0000001 -0.24343590450827673 -0.9626560310072678
898700000.0 -0.24662349400898398 -0.9627665494840175
899050000.0 -0.24988011055520487 -0.9626473651550949
899399999.9999999 -0.2531709465965223 -0.9623197379605042
899749999.9999999 -0.2564747534276465 -0.9618037357559187
900100000.0000001 -0.2597794631977836 -0.9611146592672848
900450000.0 -0.263078171771179 -0.9602614454953943
900800000.0 -0.2663656527981686 -0.9592461881065955
901150000.0 -0.2696351977988483 -0.9580642900487875
901500000.0 -0.2728754507655634 -0.9567051331264876
901850000.0 -0.27606693356693235 -0.9551535029193706
902200000.0 -0.279178148780903 -0.9533923779596094
902550000.0 -0.2821616153151719 -0.9514080629734525
902900000.0000001 -0.2849511317394969 -0.9491988279808681
903250000.0 -0.2874630725575865 -0.9467876713558315
903600000.0 -0.2896061124538535 -0.9442376143241913
903950000.0 -0.2913035492595164 -0.9416633706096913
904300000.0 -0.29252707206847073 -0.9392280267147916
904650000.0000001 -0.29332924806544786 -0.9371139236037052
905000000.0 -0.2938520442805714 -0.9354705869967197
905350000.0 -0.29429593572007473 -0.9343641163545208
905700000.0 -0.29486116233649184 -0.933759245015374
906050000.0 -0.2956945049014734 -0.9335436098166195
906400000.0 -0.2968674432861244 -0.9335742638344928
906750000.0 -0.29838568319528014 -0.9337185666027927
907100000.0 -0.30021339493716037 -0.9338755193336186
907450000.0 -0.30229661740111424 -0.9339794569501711
907800000.0 -0.304579029170876 -0.9339942621791162
908150000.0 -0.3070100170765692 -0.9339049930501022
908500000.0 -0.30954750614497334 -0.9337105035571167
908850000.0 -0.3121580150599587 -0.933418174081831
909200000.0 -0.3148156231128452 -0.9330406740509674
909550000.0 -0.317500822050382 -0.932594300267586
909900000.0 -0.320199792355404 -0.9320984073291199
910250000.0000001 -0.3229044528212744 -0.9315754907075485
910600000.0 -0.3256135868516235 -0.9310514462101183
910950000.0 -0.32833531973695296 -0.9305553141371564
911300000.0 -0.33109099337807896 -0.9301173693028113
911649999.9999999 -0.33391968342695233 -0.9297638559680272
912000000.0000001 -0.33688078927002957 -0.929506620585687
912350000.0000001 -0.3400495316480629 -0.9293278855454743
912700000.0 -0.34349938120277523 -0.9291660465292795
913050000.0 -0.34727169167667127 -0.9289154490902787
913400000.0 -0.35134730134131786 -0.9284515514199501
913750000.0 -0.3556435406487418 -0.927674260954592
914100000.0 -0.36004437473176176 -0.926541540929626
914450000.0 -0.3644428613359275 -0.9250711343608108
914800000.0 -0.36876822465822295 -0.9233161745316573
915150000.0 -0.37298903512636117 -0.9213365213883857
915500000.0 -0.37710195802486307 -0.9191805105627803
915850000.0 -0.3811178965629599 -0.9168785545425809
916200000.0 -0.3850514244841075 -0.9144438240702397
916550000.0 -0.38891426267653295 -0.9118754551552297
916900000.0 -0.39271148101867365 -0.9091618490852846
917250000.0 -0.39643889297915463 -0.9062833072008982
917600000.0 -0.40008047031316835 -0.9032141466820017
917950000.0 -0.4036049733922294 -0.8999249216495316
918300000.0 -0.40696129008687787 -0.8963857803412751
918649999.9999999 -0.41007237421134574 -0.8925725576621459
919000000.0 -0.4128285577421051 -0.888478017483909
919350000.0 -0.41508305156457775 -0.884131468207957
919700000.0 -0.4166565283287269 -0.8796296154140519
920050000.0000001 -0.4173638841657336 -0.87517690785291
920400000.0 -0.4170804788042818 -0.8711196586354645
920750000.0 -0.41585349720680503 -0.8679337015378727
921100000.0 -0.4140173459064472 -0.866111408051641
921450000.0 -0.4122062417011262 -0.8659437467498113
921800000.0000001 -0.41117123020401125 -0.8673205906622474
922150000.0 -0.4114770495164033 -0.8697340545358212
922500000.0 -0.41330554787631074 -0.8725093092689147
922850000.0 -0.41649206468620376 -0.875073058567865
923200000.0 -0.4207010904952245 -0.877083362727443
923549999.9999999 -0.4255870772956588 -0.8784131834705566
923900000.0 -0.43087527738109316 -0.8790725635701502
924250000.0 -0.4363779633647596 -0.8791357347602007
924600000.0 -0.4419806050956988 -0.8786945672133573
924950000.0 -0.44762117642336285 -0.8778350838669725
925300000.0 -0.4532723091366151 -0.8766280279735625
925650000.0 -0.458928469221263 -0.8751262687090317
926000000.0 -0.46459738895861125 -0.8733647021548094
926350000.0 -0.47029419064488315 -0.8713603567675352
926700000.0 -0.47603647020188117 -0.869111619902081
